

Reading ST24C02R EEPROM...
Error setting address: 2
Address 0x00: 0xFF
Error setting address: 2
Address 0x01: 0xFF
Error setting address: 2
Address 0x02: 0xFF
Error setting address: 2
Address 0x03: 0xFF
Error setting address: 2
Address 0x04: 0xFF
Error setting address: 2
Address 0x05: 0xFF
Error setting address: 2
Address 0x06: 0xFF
Error setting address: 2
Address 0x07: 0xFF
Error setting address: 2
Address 0x08: 0xFF
Error setting address: 2
Address 0x09: 0xFF
Error setting address: 2
Address 0x0A: 0xFF
Error setting address: 2
Address 0x0B: 0xFF
Error setting address: 2
Address 0x0C: 0xFF
Error setting address: 2
Address 0x0D: 0xFF
Error setting address: 2
Address 0x0E: 0xFF
Error setting address: 2
Address 0x0F: 0xFF
Error setting address: 2
Address 0x10: 0xFF
Error setting address: 2
Address 0x11: 0xFF
Error setting address: 2
Address 0x12: 0xFF
Error setting address: 2
Address 0x13: 0xFF
Error setting address: 2
Address 0x14: 0xFF
Error setting address: 2
Address 0x15: 0xFF
Error setting address: 2
Address 0x16: 0xFF
Error setting address: 2
Address 0x17: 0xFF
Error setting address: 2
Address 0x18: 0xFF
Error setting address: 2
Address 0x19: 0xFF
Error setting address: 2
Address 0x1A: 0xFF
Error setting address: 2
Address 0x1B: 0xFF
Error setting address: 2
Address 0x1C: 0xFF
Error setting address: 2
Address 0x1D: 0xFF
Error setting address: 2
Address 0x1E: 0xFF
Error setting address: 2
Address 0x1F: 0xFF
Error setting address: 2
Address 0x20: 0xFF
Error setting address: 2
Address 0x21: 0xFF
Error setting address: 2
Address 0x22: 0xFF
Error setting address: 2
Address 0x23: 0xFF
Error setting address: 2
Address 0x24: 0xFF
Error setting address: 2
Address 0x25: 0xFF
Error setting address: 2
Address 0x26: 0xFF
Error setting address: 2
Address 0x27: 0xFF
Error setting address: 2
Address 0x28: 0xFF
Error setting address: 2
Address 0x29: 0xFF
Error setting address: 2
Address 0x2A: 0xFF
Error setting address: 2
Address 0x2B: 0xFF
Error setting address: 2
Address 0x2C: 0xFF
Error setting address: 2
Address 0x2D: 0xFF
Error setting address: 2
Address 0x2E: 0xFF
Error setting address: 2
Address 0x2F: 0xFF
Error setting address: 2
Address 0x30: 0xFF
Error setting address: 2
Address 0x31: 0xFF
Error setting address: 2
Address 0x32: 0xFF
Error setting address: 2
Address 0x33: 0xFF
Error setting address: 2
Address 0x34: 0xFF
Error setting address: 2
Address 0x35: 0xFF
Error setting address: 2
Address 0x36: 0xFF
Error setting address: 2
Address 0x37: 0xFF
Error setting address: 2
Address 0x38: 0xFF
Error setting address: 2
Address 0x39: 0xFF
Error setting address: 2
Address 0x3A: 0xFF
Error setting address: 2
Address 0x3B: 0xFF
Error setting address: 2
Address 0x3C: 0xFF
Error setting address: 2
Address 0x3D: 0xFF
Error setting address: 2
Address 0x3E: 0xFF
Error setting address: 2
Address 0x3F: 0xFF
Error setting address: 2
Address 0x40: 0xFF
Error setting address: 2
Address 0x41: 0xFF
Error setting address: 2
Address 0x42: 0xFF
Error setting address: 2
Address 0x43: 0xFF
Error setting address: 2
Address 0x44: 0xFF
Error setting address: 2
Address 0x45: 0xFF
Error setting address: 2
Address 0x46: 0xFF
Error setting address: 2
Address 0x47: 0xFF
Error setting address: 2
Address 0x48: 0xFF
Error setting address: 2
Address 0x49: 0xFF
Error setting address: 2
Address 0x4A: 0xFF
Error setting address: 2
Address 0x4B: 0xFF
Error setting address: 2
Address 0x4C: 0xFF
Error setting address: 2
Address 0x4D: 0xFF
Error setting address: 2
Address 0x4E: 0xFF
Error setting address: 2
Address 0x4F: 0xFF
Error setting address: 2
Address 0x50: 0xFF
Error setting address: 2
Address 0x51: 0xFF
Error setting address: 2
Address 0x52: 0xFF
Error setting address: 2
Address 0x53: 0xFF
Error setting address: 2
Address 0x54: 0xFF
Error setting address: 2
Address 0x55: 0xFF
Error setting address: 2
Address 0x56: 0xFF
Error setting address: 2
Address 0x57: 0xFF
Error setting address: 2
Address 0x58: 0xFF
Error setting address: 2
Address 0x59: 0xFF
Error setting address: 2
Address 0x5A: 0xFF
Error setting address: 2
Address 0x5B: 0xFF
Error setting address: 2
Address 0x5C: 0xFF
Error setting address: 2
Address 0x5D: 0xFF
Error setting address: 2
Address 0x5E: 0xFF
Error setting address: 2
Address 0x5F: 0xFF
Error setting address: 2
Address 0x60: 0xFF
Error setting address: 2
Address 0x61: 0xFF
Error setting address: 2
Address 0x62: 0xFF
Error setting address: 2
Address 0x63: 0xFF
Error setting address: 2
Address 0x64: 0xFF
Error setting address: 2
Address 0x65: 0xFF
Error setting address: 2
Address 0x66: 0xFF
Error setting address: 2
Address 0x67: 0xFF
Error setting address: 2
Address 0x68: 0xFF
Error setting address: 2
Address 0x69: 0xFF
Error setting address: 2
Address 0x6A: 0xFF
Error setting address: 2
Address 0x6B: 0xFF
Error setting address: 2
Address 0x6C: 0xFF
Error setting address: 2
Address 0x6D: 0xFF
Error setting address: 2
Address 0x6E: 0xFF
Error setting address: 2
Address 0x6F: 0xFF
Error setting address: 2
Address 0x70: 0xFF
Error setting address: 2
Address 0x71: 0xFF
Error setting address: 2
Address 0x72: 0xFF
Error setting address: 2
Address 0x73: 0xFF
Error setting address: 2
Address 0x74: 0xFF
Error setting address: 2
Address 0x75: 0xFF
Error setting address: 2
Address 0x76: 0xFF
Error setting address: 2
Address 0x77: 0xFF
Error setting address: 2
Address 0x78: 0xFF
Error setting address: 2
Address 0x79: 0xFF
Error setting address: 2
Address 0x7A: 0xFF
Error setting address: 2
Address 0x7B: 0xFF
Error setting address: 2
Address 0x7C: 0xFF
Error setting address: 2
Address 0x7D: 0xFF
Error setting address: 2
Address 0x7E: 0xFF
Error setting address: 2
Address 0x7F: 0xFF
Error setting address: 2
Address 0x80: 0xFF
Error setting address: 2
Address 0x81: 0xFF
Error setting address: 2
Address 0x82: 0xFF
Error setting address: 2
Address 0x83: 0xFF
Error setting address: 2
Address 0x84: 0xFF
Error setting address: 2
Address 0x85: 0xFF
Error setting address: 2
Address 0x86: 0xFF
Error setting address: 2
Address 0x87: 0xFF
Error setting address: 2
Address 0x88: 0xFF
Error setting address: 2
Address 0x89: 0xFF
Error setting address: 2
Address 0x8A: 0xFF
Error setting address: 2
Address 0x8B: 0xFF
Error setting address: 2
Address 0x8C: 0xFF
Error setting address: 2
Address 0x8D: 0xFF
Error setting address: 2
Address 0x8E: 0xFF
Error setting address: 2
Address 0x8F: 0xFF
Error setting address: 2
Address 0x90: 0xFF
Error setting address: 2
Address 0x91: 0xFF
Error setting address: 2
Address 0x92: 0xFF
Error setting address: 2
Address 0x93: 0xFF
Error setting address: 2
Address 0x94: 0xFF
Error setting address: 2
Address 0x95: 0xFF
Error setting address: 2
Address 0x96: 0xFF
Error setting address: 2
Address 0x97: 0xFF
Error setting address: 2
Address 0x98: 0xFF
Error setting address: 2
Address 0x99: 0xFF
Error setting address: 2
Address 0x9A: 0xFF
Error setting address: 2
Address 0x9B: 0xFF
Error setting address: 2
Address 0x9C: 0xFF
Error setting address: 2
Address 0x9D: 0xFF
Error setting address: 2
Address 0x9E: 0xFF
Error setting address: 2
Address 0x9F: 0xFF
Error setting address: 2
Address 0xA0: 0xFF
Error setting address: 2
Address 0xA1: 0xFF
Error setting address: 2
Address 0xA2: 0xFF
Error setting address: 2
Address 0xA3: 0xFF
Error setting address: 2
Address 0xA4: 0xFF
Error setting address: 2
Address 0xA5: 0xFF
Error setting address: 2
Address 0xA6: 0xFF
Error setting address: 2
Address 0xA7: 0xFF
Error setting address: 2
Address 0xA8: 0xFF
Error setting address: 2
Address 0xA9: 0xFF
Error setting address: 2
Address 0xAA: 0xFF
Error setting address: 2
Address 0xAB: 0xFF
Error setting address: 2
Address 0xAC: 0xFF
Error setting address: 2
Address 0xAD: 0xFF
Error setting address: 2
Address 0xAE: 0xFF
Error setting address: 2
Address 0xAF: 0xFF
Error setting address: 2
Address 0xB0: 0xFF
Error setting address: 2
Address 0xB1: 0xFF
Error setting address: 2
Address 0xB2: 0xFF
Error setting address: 2
Address 0xB3: 0xFF
Error setting address: 2
Address 0xB4: 0xFF
Error setting address: 2
Address 0xB5: 0xFF
Error setting address: 2
Address 0xB6: 0xFF
Error setting address: 2
Address 0xB7: 0xFF
Error setting address: 2
Address 0xB8: 0xFF
Error setting address: 2
Address 0xB9: 0xFF
Error setting address: 2
Address 0xBA: 0xFF
Error setting address: 2
Address 0xBB: 0xFF
Error setting address: 2
Address 0xBC: 0xFF
Error setting address: 2
Address 0xBD: 0xFF
Error setting address: 2
Address 0xBE: 0xFF
Error setting address: 2
Address 0xBF: 0xFF
Error setting address: 2
Address 0xC0: 0xFF
Error setting address: 2
Address 0xC1: 0xFF
Error setting address: 2
Address 0xC2: 0xFF
Error setting address: 2
Address 0xC3: 0xFF
Error setting address: 2
Address 0xC4: 0xFF
Error setting address: 2
Address 0xC5: 0xFF
Error setting address: 2
Address 0xC6: 0xFF
Error setting address: 2
Address 0xC7: 0xFF
Error setting address: 2
Address 0xC8: 0xFF
Error setting address: 2
Address 0xC9: 0xFF
Error setting address: 2
Address 0xCA: 0xFF
Error setting address: 2
Address 0xCB: 0xFF
Error setting address: 2
Address 0xCC: 0xFF
Error setting address: 2
Address 0xCD: 0xFF
Error setting address: 2
Address 0xCE: 0xFF
Error setting address: 2
Address 0xCF: 0xFF
Error setting address: 2
Address 0xD0: 0xFF
Error setting address: 2
Address 0xD1: 0xFF
Error setting address: 2
Address 0xD2: 0xFF
Error setting address: 2
Address 0xD3: 0xFF
Error setting address: 2
Address 0xD4: 0xFF
Error setting address: 2
Address 0xD5: 0xFF
Error setting address: 2
Address 0xD6: 0xFF
Error setting address: 2
Address 0xD7: 0xFF
Error setting address: 2
Address 0xD8: 0xFF
Error setting address: 2
Address 0xD9: 0xFF
Error setting address: 2
Address 0xDA: 0xFF
Error setting address: 2
Address 0xDB: 0xFF
Error setting address: 2
Address 0xDC: 0xFF
Error setting address: 2
Address 0xDD: 0xFF
Error setting address: 2
Address 0xDE: 0xFF
Error setting address: 2
Address 0xDF: 0xFF
Error setting address: 2
Address 0xE0: 0xFF
Error setting address: 2
Address 0xE1: 0xFF
Error setting address: 2
Address 0xE2: 0xFF
Error setting address: 2
Address 0xE3: 0xFF
Error setting address: 2
Address 0xE4: 0xFF
Error setting address: 2
Address 0xE5: 0xFF
Error setting address: 2
Address 0xE6: 0xFF
Error setting address: 2
Address 0xE7: 0xFF
Error setting address: 2
Address 0xE8: 0xFF
Error setting address: 2
Address 0xE9: 0xFF
Error setting address: 2
Address 0xEA: 0xFF
Error setting address: 2
Address 0xEB: 0xFF
Error setting address: 2
Address 0xEC: 0xFF
Error setting address: 2
Address 0xED: 0xFF
Error setting address: 2
Address 0xEE: 0xFF
Error setting address: 2
Address 0xEF: 0xFF
Error setting address: 2
Address 0xF0: 0xFF
Error setting address: 2
Address 0xF1: 0xFF
Error setting address: 2
Address 0xF2: 0xFF
Error setting address: 2
Address 0xF3: 0xFF
Error setting address: 2
Address 0xF4: 0xFF
Error setting address: 2
Address 0xF5: 0xFF
Error setting address: 2
Address 0xF6: 0xFF
Error setting address: 2
Address 0xF7: 0xFF
Error setting address: 2
Address 0xF8: 0xFF
Error setting address: 2
Address 0xF9: 0xFF
Error setting address: 2
Address 0xFA: 0xFF
Error setting address: 2
Address 0xFB: 0xFF
Error setting address: 2
Address 0xFC: 0xFF
Error setting address: 2
Address 0xFD: 0xFF
Error setting address: 2
Address 0xFE: 0xFF
Error setting address: 2
Address 0xFF: 0xFF
Finished reading EEPROM.

